T2DEC 000:011.403   SEGGER J-Link V7.58c Log File
T2DEC 000:011.535   DLL Compiled: Nov 24 2021 17:20:18
T2DEC 000:011.542   Logging started @ 2021-12-06 14:30
T2DEC 000:011.549 - 11.553ms
T2DEC 000:011.562 JLINK_SetWarnOutHandler(...)
T2DEC 000:011.571 - 0.012ms
T2DEC 000:011.580 JLINK_OpenEx(...)
T2DEC 000:013.178   Firmware: J-Link STLink V21 compiled Aug 12 2019 10:29:20
T2DEC 000:013.545   Firmware: J-Link STLink V21 compiled Aug 12 2019 10:29:20
T2DEC 000:027.675   Hardware: V1.00
T2DEC 000:027.695   S/N: 775094665
T2DEC 000:027.706   OEM: SEGGER
T2DEC 000:027.716   Feature(s): None
T2DEC 000:031.263   TELNET listener socket opened on port 19021
T2DEC 000:031.436   WEBSRV WEBSRV_Init(): Starting webserver thread(s)
T2DEC 000:031.593   WEBSRV Webserver running on local port 19080
T2DEC 000:039.868 - 28.297ms returns "O.K."
T2DEC 000:039.896 JLINK_GetEmuCaps()
T2DEC 000:039.904 - 0.011ms returns 0x98EA5A33
T2DEC 000:039.917 JLINK_TIF_GetAvailable(...)
T2DEC 000:040.095 - 0.185ms
T2DEC 000:040.112 JLINK_SetErrorOutHandler(...)
T2DEC 000:040.119 - 0.010ms
T2DEC 000:040.144 JLINK_ExecCommand("ProjectFile = "D:\workspace\WHZ_FLIGHT\KEIL\JLinkSettings.ini"", ...). 
T2DEC 000:051.325   Ref file found at: C:\Keil_v5\ARM\Segger\JLinkDevices.ref
T2DEC 000:051.428   XML referenced by ref file: C:\Program Files\SEGGER\JLink\JLinkDevices.xml
T2DEC 000:052.201   C:\Program Files\SEGGER\JLink\JLinkDevices.xml evaluated successfully.
T2DEC 000:088.815 - 48.679ms returns 0x00
T2DEC 000:088.879 JLINK_ExecCommand("Device = STM32F401RETx", ...). 
T2DEC 000:089.278   Device "STM32F401RE" selected.
T2DEC 000:089.552 - 0.668ms returns 0x00
T2DEC 000:089.566 JLINK_ExecCommand("DisableConnectionTimeout", ...). 
T2DEC 000:089.577 - 0.005ms returns 0x01
T2DEC 000:089.587 JLINK_GetHardwareVersion()
T2DEC 000:089.593 - 0.010ms returns 10000
T2DEC 000:089.607 JLINK_GetDLLVersion()
T2DEC 000:089.614 - 0.009ms returns 75803
T2DEC 000:089.623 JLINK_GetOEMString(...)
T2DEC 000:089.631 JLINK_GetFirmwareString(...)
T2DEC 000:089.638 - 0.009ms
T2DEC 000:089.694 JLINK_GetDLLVersion()
T2DEC 000:089.703 - 0.012ms returns 75803
T2DEC 000:089.713 JLINK_GetCompileDateTime()
T2DEC 000:089.719 - 0.009ms
T2DEC 000:089.907 JLINK_GetFirmwareString(...)
T2DEC 000:089.918 - 0.014ms
T2DEC 000:089.992 JLINK_GetHardwareVersion()
T2DEC 000:090.006 - 0.017ms returns 10000
T2DEC 000:090.096 JLINK_GetSN()
T2DEC 000:090.107 - 0.014ms returns 775094665
T2DEC 000:090.137 JLINK_GetOEMString(...)
T2DEC 000:090.165 JLINK_TIF_Select(JLINKARM_TIF_SWD)
T2DEC 000:090.732 - 0.574ms returns 0x00
T2DEC 000:090.747 JLINK_HasError()
T2DEC 000:090.764 JLINK_SetSpeed(5000)
T2DEC 000:090.838 - 0.081ms
T2DEC 000:090.853 JLINK_GetId()
T2DEC 000:091.186   InitTarget() start
T2DEC 000:091.202    J-Link Script File: Executing InitTarget()
T2DEC 000:096.015   InitTarget() end
T2DEC 000:096.721   Found SW-DP with ID 0x4BA01477
T2DEC 000:098.223   Old FW that does not support reading DPIDR via DAP jobs
T2DEC 000:099.009   DPv0 detected
T2DEC 000:099.038   CoreSight SoC-400 or earlier
T2DEC 000:099.065   Scanning AP map to find all available APs
T2DEC 000:099.695   AP[1]: Stopped AP scan as end of AP map has been reached
T2DEC 000:099.725   AP[0]: AHB-AP (IDR: 0x24770011)
T2DEC 000:099.748   Iterating through AP map to find AHB-AP to use
T2DEC 000:100.614   AP[0]: Core found
T2DEC 000:100.642   AP[0]: AHB-AP ROM base: 0xE00FF000
T2DEC 000:101.212   CPUID register: 0x410FC241. Implementer code: 0x41 (ARM)
T2DEC 000:101.242   Found Cortex-M4 r0p1, Little endian.
T2DEC 000:201.765   -- Max. mem block: 0x00002C70
T2DEC 000:204.037   CPU_ReadMem(4 bytes @ 0xE000EDF0)
T2DEC 000:204.359   CPU_ReadMem(4 bytes @ 0xE0002000)
T2DEC 000:204.732   FPUnit: 6 code (BP) slots and 2 literal slots
T2DEC 000:204.745   CPU_ReadMem(4 bytes @ 0xE000EDFC)
T2DEC 000:205.062   CPU_ReadMem(4 bytes @ 0xE0001000)
T2DEC 000:205.391   CPU_WriteMem(4 bytes @ 0xE0001000)
T2DEC 000:205.725   CPU_ReadMem(4 bytes @ 0xE000ED88)
T2DEC 000:206.036   CPU_WriteMem(4 bytes @ 0xE000ED88)
T2DEC 000:206.417   CPU_ReadMem(4 bytes @ 0xE000ED88)
T2DEC 000:206.747   CPU_WriteMem(4 bytes @ 0xE000ED88)
T2DEC 000:207.113   CoreSight components:
T2DEC 000:207.144   ROMTbl[0] @ E00FF000
T2DEC 000:207.155   CPU_ReadMem(64 bytes @ 0xE00FF000)
T2DEC 000:207.839   CPU_ReadMem(32 bytes @ 0xE000EFE0)
T2DEC 000:208.384   [0][0]: E000E000 CID B105E00D PID 000BB00C SCS-M7
T2DEC 000:208.400   CPU_ReadMem(32 bytes @ 0xE0001FE0)
T2DEC 000:209.015   [0][1]: E0001000 CID B105E00D PID 003BB002 DWT
T2DEC 000:209.029   CPU_ReadMem(32 bytes @ 0xE0002FE0)
T2DEC 000:209.524   [0][2]: E0002000 CID B105E00D PID 002BB003 FPB
T2DEC 000:209.538   CPU_ReadMem(32 bytes @ 0xE0000FE0)
T2DEC 000:210.244   [0][3]: E0000000 CID B105E00D PID 003BB001 ITM
T2DEC 000:210.257   CPU_ReadMem(32 bytes @ 0xE0040FE0)
T2DEC 000:210.836   [0][4]: E0040000 CID B105900D PID 000BB9A1 TPIU
T2DEC 000:210.849   CPU_ReadMem(32 bytes @ 0xE0041FE0)
T2DEC 000:211.491   [0][5]: E0041000 CID B105900D PID 000BB925 ETM
T2DEC 000:211.760 - 120.913ms returns 0x2BA01477
T2DEC 000:211.778 JLINK_GetDLLVersion()
T2DEC 000:211.784 - 0.009ms returns 75803
T2DEC 000:211.794 JLINK_CORE_GetFound()
T2DEC 000:211.800 - 0.009ms returns 0xE0000FF
T2DEC 000:211.841 JLINK_GetDebugInfo(0x100 = JLINKARM_ROM_TABLE_ADDR_INDEX)
T2DEC 000:211.854   Value=0xE00FF000
T2DEC 000:211.863 - 0.024ms returns 0
T2DEC 000:211.892 JLINK_GetDebugInfo(0x100 = JLINKARM_ROM_TABLE_ADDR_INDEX)
T2DEC 000:211.899   Value=0xE00FF000
T2DEC 000:211.908 - 0.018ms returns 0
T2DEC 000:211.915 JLINK_GetDebugInfo(0x101 = JLINKARM_DEBUG_INFO_ETM_ADDR_INDEX)
T2DEC 000:211.922   Value=0xE0041000
T2DEC 000:211.930 - 0.017ms returns 0
T2DEC 000:211.938 JLINK_ReadMemEx(0xE0041FD0, 0x20 Bytes, Flags = 0x02000004)
T2DEC 000:211.960   CPU_ReadMem(32 bytes @ 0xE0041FD0)
T2DEC 000:212.468   Data:  04 00 00 00 00 00 00 00 00 00 00 00 00 00 00 00 ...
T2DEC 000:212.480 - 0.545ms returns 32 (0x20)
T2DEC 000:212.490 JLINK_GetDebugInfo(0x102 = JLINKARM_DEBUG_INFO_MTB_ADDR_INDEX)
T2DEC 000:212.497   Value=0x00000000
T2DEC 000:212.505 - 0.018ms returns 0
T2DEC 000:212.513 JLINK_GetDebugInfo(0x103 = JLINKARM_DEBUG_INFO_TPIU_ADDR_INDEX)
T2DEC 000:212.519   Value=0xE0040000
T2DEC 000:212.527 - 0.017ms returns 0
T2DEC 000:212.535 JLINK_GetDebugInfo(0x104 = JLINKARM_DEBUG_INFO_ITM_ADDR_INDEX)
T2DEC 000:212.541   Value=0xE0000000
T2DEC 000:212.550 - 0.017ms returns 0
T2DEC 000:212.557 JLINK_GetDebugInfo(0x105 = JLINKARM_DEBUG_INFO_DWT_ADDR_INDEX)
T2DEC 000:212.563   Value=0xE0001000
T2DEC 000:212.572 - 0.017ms returns 0
T2DEC 000:212.579 JLINK_GetDebugInfo(0x106 = JLINKARM_DEBUG_INFO_FPB_ADDR_INDEX)
T2DEC 000:212.585   Value=0xE0002000
T2DEC 000:212.594 - 0.017ms returns 0
T2DEC 000:212.602 JLINK_GetDebugInfo(0x107 = JLINKARM_DEBUG_INFO_NVIC_ADDR_INDEX)
T2DEC 000:212.608   Value=0xE000E000
T2DEC 000:212.616 - 0.017ms returns 0
T2DEC 000:212.624 JLINK_GetDebugInfo(0x10C = JLINKARM_DEBUG_INFO_DBG_ADDR_INDEX)
T2DEC 000:212.630   Value=0xE000EDF0
T2DEC 000:212.638 - 0.017ms returns 0
T2DEC 000:212.646 JLINK_GetDebugInfo(0x01 = Unknown)
T2DEC 000:212.652   Value=0x00000001
T2DEC 000:212.660 - 0.017ms returns 0
T2DEC 000:212.668 JLINK_ReadMemU32(0xE000ED00, 0x1 Items)
T2DEC 000:212.678   CPU_ReadMem(4 bytes @ 0xE000ED00)
T2DEC 000:212.989   Data:  41 C2 0F 41
T2DEC 000:213.001   Debug reg: CPUID
T2DEC 000:213.010 - 0.344ms returns 1 (0x1)
T2DEC 000:213.019 JLINK_GetDebugInfo(0x10F = JLINKARM_DEBUG_INFO_HAS_CORTEX_M_SECURITY_EXT_INDEX)
T2DEC 000:213.026   Value=0x00000000
T2DEC 000:213.035 - 0.018ms returns 0
T2DEC 000:213.043 JLINK_HasError()
T2DEC 000:213.052 JLINK_SetResetType(JLINKARM_CM3_RESET_TYPE_NORMAL)
T2DEC 000:213.058 - 0.009ms returns JLINKARM_CM3_RESET_TYPE_NORMAL
T2DEC 000:213.066 JLINK_Reset()
T2DEC 000:213.080   CPU is running
T2DEC 000:213.090   CPU_WriteMem(4 bytes @ 0xE000EDF0)
T2DEC 000:213.460   CPU is running
T2DEC 000:213.473   CPU_WriteMem(4 bytes @ 0xE000EDFC)
T2DEC 000:213.817   Reset: Halt core after reset via DEMCR.VC_CORERESET.
T2DEC 000:214.302   Reset: Reset device via AIRCR.SYSRESETREQ.
T2DEC 000:214.317   CPU is running
T2DEC 000:214.327   CPU_WriteMem(4 bytes @ 0xE000ED0C)
T2DEC 000:266.615   CPU_ReadMem(4 bytes @ 0xE000EDF0)
T2DEC 000:266.988   CPU_ReadMem(4 bytes @ 0xE000EDF0)
T2DEC 000:267.314   CPU is running
T2DEC 000:267.327   CPU_WriteMem(4 bytes @ 0xE000EDF0)
T2DEC 000:267.659   CPU is running
T2DEC 000:267.674   CPU_WriteMem(4 bytes @ 0xE000EDFC)
T2DEC 000:273.254   CPU_ReadMem(4 bytes @ 0xE000EDF0)
T2DEC 000:276.479   CPU_WriteMem(4 bytes @ 0xE0002000)
T2DEC 000:276.882   CPU_ReadMem(4 bytes @ 0xE000EDFC)
T2DEC 000:277.283   CPU_ReadMem(4 bytes @ 0xE0001000)
T2DEC 000:277.670 - 64.620ms
T2DEC 000:277.711 JLINK_HasError()
T2DEC 000:277.794 JLINK_ReadReg(R15 (PC))
T2DEC 000:277.822 - 0.036ms returns 0x080001A8
T2DEC 000:277.843 JLINK_ReadReg(XPSR)
T2DEC 000:277.860 - 0.024ms returns 0x01000000
T2DEC 000:277.881 JLINK_Halt()
T2DEC 000:277.895 - 0.021ms returns 0x00
T2DEC 000:277.915 JLINK_ReadMemU32(0xE000EDF0, 0x1 Items)
T2DEC 000:277.939   CPU_ReadMem(4 bytes @ 0xE000EDF0)
T2DEC 000:278.316   Data:  03 00 03 00
T2DEC 000:278.348   Debug reg: DHCSR
T2DEC 000:278.370 - 0.463ms returns 1 (0x1)
T2DEC 000:278.403 JLINK_WriteU32_64(0xE000EDF0, 0xA05F0003)
T2DEC 000:278.420   Debug reg: DHCSR
T2DEC 000:278.957   CPU_WriteMem(4 bytes @ 0xE000EDF0)
T2DEC 000:279.363 - 0.977ms returns 0 (0x00000000)
T2DEC 000:279.398 JLINK_WriteU32_64(0xE000EDFC, 0x01000000)
T2DEC 000:279.416   Debug reg: DEMCR
T2DEC 000:279.450   CPU_WriteMem(4 bytes @ 0xE000EDFC)
T2DEC 000:279.863 - 0.480ms returns 0 (0x00000000)
T2DEC 000:280.052 JLINK_GetHWStatus(...)
T2DEC 000:280.313 - 0.279ms returns 0
T2DEC 000:280.479 JLINK_GetNumBPUnits(Type = 0xFFFFFF00)
T2DEC 000:280.502 - 0.031ms returns 0x06
T2DEC 000:280.524 JLINK_GetNumBPUnits(Type = 0xF0)
T2DEC 000:280.541 - 0.025ms returns 0x2000
T2DEC 000:280.562 JLINK_GetNumWPUnits()
T2DEC 000:280.578 - 0.024ms returns 4
T2DEC 000:280.694 JLINK_GetSpeed()
T2DEC 000:280.714 - 0.027ms returns 4000
T2DEC 000:280.798 JLINK_ReadMemU32(0xE000E004, 0x1 Items)
T2DEC 000:280.829   CPU_ReadMem(4 bytes @ 0xE000E004)
T2DEC 000:281.247   Data:  02 00 00 00
T2DEC 000:281.296 - 0.506ms returns 1 (0x1)
T2DEC 000:281.319 JLINK_ReadMemU32(0xE000E004, 0x1 Items)
T2DEC 000:281.343   CPU_ReadMem(4 bytes @ 0xE000E004)
T2DEC 000:281.732   Data:  02 00 00 00
T2DEC 000:281.759 - 0.447ms returns 1 (0x1)
T2DEC 000:281.781 JLINK_WriteMemEx(0xE0001000, 0x0000001C Bytes, Flags = 0x02000004)
T2DEC 000:281.797   Data:  01 00 00 00 00 00 00 00 00 00 00 00 00 00 00 00 ...
T2DEC 000:281.828   CPU_WriteMem(28 bytes @ 0xE0001000)
T2DEC 000:282.368 - 0.604ms returns 0x1C
T2DEC 000:282.403 JLINK_HasError()
T2DEC 000:282.422 JLINK_ReadReg(R15 (PC))
T2DEC 000:282.440 - 0.025ms returns 0x080001A8
T2DEC 000:282.458 JLINK_ReadReg(XPSR)
T2DEC 000:282.473 - 0.021ms returns 0x01000000
T2DEC 000:289.811 JLINK_SWO_Control(JLINKARM_SWO_CMD_GET_SPEED_INFO, ...)
T2DEC 000:290.124 - 0.327ms returns 0x00
T2DEC 000:290.151 JLINK_SWO_Control(JLINKARM_SWO_CMD_STOP, ...)
T2DEC 000:290.168 - 0.022ms returns 0x00
T2DEC 000:290.182 JLINK_SWO_Control(JLINKARM_SWO_CMD_START, ...)
T2DEC 000:291.001    -- UART
T2DEC 000:291.024    -- 4421052bps
T2DEC 000:291.390   CPU_ReadMem(4 bytes @ 0xE0042004)
T2DEC 000:291.816   CPU_WriteMem(4 bytes @ 0xE0042004)
T2DEC 000:292.550 - 2.377ms returns 0x00
T2DEC 000:292.571 JLINK_WriteU32_64(0xE0040010, 0x00000012)
T2DEC 000:292.581   Debug reg: TPIU_ACPR
T2DEC 000:292.612 - 0.046ms returns 0 (0x00000000)
T2DEC 000:292.624 JLINK_WriteU32_64(0xE00400F0, 0x00000002)
T2DEC 000:292.634   Debug reg: TPIU_SPPR
T2DEC 000:292.649 - 0.029ms returns 0 (0x00000000)
T2DEC 000:292.661 JLINK_WriteU32_64(0xE0040304, 0x00000000)
T2DEC 000:292.670   Debug reg: TPIU_FFCR
T2DEC 000:292.684 - 0.029ms returns 0 (0x00000000)
T2DEC 000:292.697 JLINK_WriteU32_64(0xE0000FB0, 0xC5ACCE55)
T2DEC 000:292.706   Debug reg: ITM_LOCKACCESS
T2DEC 000:292.721   CPU_WriteMem(4 bytes @ 0xE0000FB0)
T2DEC 000:293.064 - 0.379ms returns 0 (0x00000000)
T2DEC 000:293.089 JLINK_WriteU32_64(0xE0000E80, 0x0001000D)
T2DEC 000:293.099   Debug reg: ITM_TCR
T2DEC 000:293.117 - 0.033ms returns 0 (0x00000000)
T2DEC 000:293.130 JLINK_WriteU32_64(0xE0000E00, 0xFFFFFFFF)
T2DEC 000:293.139   Debug reg: ITM_TER
T2DEC 000:293.156 - 0.030ms returns 0 (0x00000000)
T2DEC 000:293.167 JLINK_WriteU32_64(0xE0000E40, 0x00000008)
T2DEC 000:293.177   Debug reg: ITM_TPR
T2DEC 000:293.191 - 0.028ms returns 0 (0x00000000)
T2DEC 000:293.203 JLINK_WriteU32_64(0xE0001000, 0x00010A1F)
T2DEC 000:293.212   Debug reg: DWT_CTRL
T2DEC 000:293.226 - 0.027ms returns 0 (0x00000000)
T2DEC 000:310.675 JLINK_ReadMemEx(0xE0001004, 0x4 Bytes, Flags = 0x02000000)
T2DEC 000:310.701   Data:  00 00 00 00
T2DEC 000:310.711   Debug reg: DWT_CYCCNT
T2DEC 000:310.719 - 0.047ms returns 4 (0x4)
T2DEC 000:388.247 JLINK_HasError()
T2DEC 000:388.271 JLINK_SetResetType(JLINKARM_CM3_RESET_TYPE_NORMAL)
T2DEC 000:388.278 - 0.010ms returns JLINKARM_CM3_RESET_TYPE_NORMAL
T2DEC 000:388.286 JLINK_Reset()
T2DEC 000:388.299   CPU_WriteMem(4 bytes @ 0xE0000E00)
T2DEC 000:388.308   CPU_WriteMem(4 bytes @ 0xE0000E40)
T2DEC 000:388.317   CPU_WriteMem(4 bytes @ 0xE0000E80)
T2DEC 000:388.326   CPU_WriteMem(4 bytes @ 0xE0001000)
T2DEC 000:388.335   CPU_WriteMem(4 bytes @ 0xE0040010)
T2DEC 000:388.344   CPU_WriteMem(4 bytes @ 0xE00400F0)
T2DEC 000:388.352   CPU_WriteMem(4 bytes @ 0xE0040304)
T2DEC 000:390.002   CPU_WriteMem(4 bytes @ 0xE000EDF0)
T2DEC 000:390.337   CPU_WriteMem(4 bytes @ 0xE000EDFC)
T2DEC 000:390.686   Reset: Halt core after reset via DEMCR.VC_CORERESET.
T2DEC 000:391.150   Reset: Reset device via AIRCR.SYSRESETREQ.
T2DEC 000:391.169   CPU_WriteMem(4 bytes @ 0xE000ED0C)
T2DEC 000:444.057   CPU_ReadMem(4 bytes @ 0xE000EDF0)
T2DEC 000:444.507   CPU_ReadMem(4 bytes @ 0xE000EDF0)
T2DEC 000:444.933   CPU_WriteMem(4 bytes @ 0xE000EDF0)
T2DEC 000:445.339   CPU_WriteMem(4 bytes @ 0xE000EDFC)
T2DEC 000:451.339   CPU_ReadMem(4 bytes @ 0xE000EDF0)
T2DEC 000:454.678   CPU_WriteMem(4 bytes @ 0xE0002000)
T2DEC 000:455.194   CPU_ReadMem(4 bytes @ 0xE000EDFC)
T2DEC 000:455.540   CPU_ReadMem(4 bytes @ 0xE0001000)
T2DEC 000:455.965   CPU_ReadMem(4 bytes @ 0xE0042004)
T2DEC 000:456.356 - 68.077ms
T2DEC 000:456.375 JLINK_WriteU32_64(0xE000EDFC, 0x01000000)
T2DEC 000:456.382   Debug reg: DEMCR
T2DEC 000:456.397   CPU_WriteMem(4 bytes @ 0xE000EDFC)
T2DEC 000:456.757 - 0.388ms returns 0 (0x00000000)
T2DEC 000:457.207 JLINK_HasError()
T2DEC 000:457.221 JLINK_ReadReg(R15 (PC))
T2DEC 000:457.230 - 0.012ms returns 0x080001A8
T2DEC 000:457.238 JLINK_ReadReg(XPSR)
T2DEC 000:457.244 - 0.009ms returns 0x01000000
T2DEC 000:461.111 JLINK_ReadMemEx(0x080001A8, 0x3C Bytes, Flags = 0x02000000)
T2DEC 000:461.126   CPU_ReadMem(128 bytes @ 0x08000180)
T2DEC 000:462.298    -- Updating C cache (128 bytes @ 0x08000180)
T2DEC 000:462.310    -- Read from C cache (60 bytes @ 0x080001A8)
T2DEC 000:462.320   Data:  06 48 80 47 06 48 00 47 FE E7 FE E7 FE E7 FE E7 ...
T2DEC 000:462.328 - 1.220ms returns 60 (0x3C)
T2DEC 000:462.339 JLINK_ReadMemEx(0x080001A8, 0x2 Bytes, Flags = 0x02000000)
T2DEC 000:462.347    -- Read from C cache (2 bytes @ 0x080001A8)
T2DEC 000:462.355   Data:  06 48
T2DEC 000:462.364 - 0.027ms returns 2 (0x2)
T2DEC 000:462.718 JLINK_ReadMemEx(0x080001AA, 0x2 Bytes, Flags = 0x02000000)
T2DEC 000:462.730    -- Read from C cache (2 bytes @ 0x080001AA)
T2DEC 000:462.739   Data:  80 47
T2DEC 000:462.748 - 0.033ms returns 2 (0x2)
T2DEC 000:462.765 JLINK_ReadMemEx(0x080001AA, 0x2 Bytes, Flags = 0x02000000)
T2DEC 000:462.772    -- Read from C cache (2 bytes @ 0x080001AA)
T2DEC 000:462.781   Data:  80 47
T2DEC 000:462.789 - 0.027ms returns 2 (0x2)
T2DEC 000:462.797 JLINK_ReadMemEx(0x080001AC, 0x3C Bytes, Flags = 0x02000000)
T2DEC 000:462.803    -- Read from C cache (60 bytes @ 0x080001AC)
T2DEC 000:462.812   Data:  06 48 00 47 FE E7 FE E7 FE E7 FE E7 FE E7 FE E7 ...
T2DEC 000:462.820 - 0.026ms returns 60 (0x3C)
T2DEC 000:462.828 JLINK_ReadMemEx(0x080001AC, 0x2 Bytes, Flags = 0x02000000)
T2DEC 000:462.876    -- Read from C cache (2 bytes @ 0x080001AC)
T2DEC 000:462.887   Data:  06 48
T2DEC 000:462.895 - 0.069ms returns 2 (0x2)
T2DEC 000:646.271 JLINK_WriteU32_64(0xE0001008, 0x00000000)
T2DEC 000:646.294   Debug reg: DWT_CPICNT
T2DEC 000:646.314 - 0.046ms returns 0 (0x00000000)
T2DEC 000:646.323 JLINK_WriteU32_64(0xE000100C, 0x00000000)
T2DEC 000:646.330   Debug reg: DWT_EXCCNT
T2DEC 000:646.341 - 0.021ms returns 0 (0x00000000)
T2DEC 000:646.350 JLINK_WriteU32_64(0xE0001010, 0x00000000)
T2DEC 000:646.357   Debug reg: DWT_SLEEPCNT
T2DEC 000:646.367 - 0.020ms returns 0 (0x00000000)
T2DEC 000:646.376 JLINK_WriteU32_64(0xE0001014, 0x00000000)
T2DEC 000:646.382   Debug reg: DWT_LSUCNT
T2DEC 000:646.393 - 0.020ms returns 0 (0x00000000)
T2DEC 000:646.401 JLINK_WriteU32_64(0xE0001018, 0x00000000)
T2DEC 000:646.408   Debug reg: DWT_FOLDCNT
T2DEC 000:646.418 - 0.019ms returns 0 (0x00000000)
T2DEC 003:029.315 JLINK_HasError()
T2DEC 003:029.334 JLINK_ReadReg(R0)
T2DEC 003:029.638 - 0.312ms returns 0x00000000
T2DEC 003:029.656 JLINK_ReadReg(R1)
T2DEC 003:029.663 - 0.010ms returns 0x00000000
T2DEC 003:029.673 JLINK_ReadReg(R2)
T2DEC 003:029.680 - 0.010ms returns 0x00000000
T2DEC 003:029.690 JLINK_ReadReg(R3)
T2DEC 003:029.697 - 0.010ms returns 0x00000000
T2DEC 003:029.706 JLINK_ReadReg(R4)
T2DEC 003:029.713 - 0.010ms returns 0x00000000
T2DEC 003:029.723 JLINK_ReadReg(R5)
T2DEC 003:029.730 - 0.009ms returns 0x00000000
T2DEC 003:029.739 JLINK_ReadReg(R6)
T2DEC 003:029.746 - 0.010ms returns 0x00000000
T2DEC 003:029.756 JLINK_ReadReg(R7)
T2DEC 003:029.762 - 0.009ms returns 0x00000000
T2DEC 003:030.176 JLINK_ReadReg(R8)
T2DEC 003:030.198 - 0.025ms returns 0x00000000
T2DEC 003:030.208 JLINK_ReadReg(R9)
T2DEC 003:030.215 - 0.010ms returns 0x00000000
T2DEC 003:030.223 JLINK_ReadReg(R10)
T2DEC 003:030.230 - 0.009ms returns 0x00000000
T2DEC 003:030.238 JLINK_ReadReg(R11)
T2DEC 003:030.244 - 0.009ms returns 0x00000000
T2DEC 003:030.252 JLINK_ReadReg(R12)
T2DEC 003:030.258 - 0.009ms returns 0x00000000
T2DEC 003:030.266 JLINK_ReadReg(R13 (SP))
T2DEC 003:030.273 - 0.009ms returns 0x20002D88
T2DEC 003:030.281 JLINK_ReadReg(R14)
T2DEC 003:030.287 - 0.009ms returns 0xFFFFFFFF
T2DEC 003:030.295 JLINK_ReadReg(R15 (PC))
T2DEC 003:030.302 - 0.009ms returns 0x080001A8
T2DEC 003:030.310 JLINK_ReadReg(XPSR)
T2DEC 003:030.316 - 0.009ms returns 0x01000000
T2DEC 003:030.324 JLINK_ReadReg(MSP)
T2DEC 003:030.331 - 0.009ms returns 0x20002D88
T2DEC 003:030.338 JLINK_ReadReg(PSP)
T2DEC 003:030.345 - 0.009ms returns 0x00000000
T2DEC 003:030.353 JLINK_ReadReg(CFBP)
T2DEC 003:030.359 - 0.009ms returns 0x00000000
T2DEC 003:030.367 JLINK_ReadReg(FPSCR)
T2DEC 003:034.592 - 4.231ms returns 0x00000000
T2DEC 003:034.608 JLINK_ReadReg(FPS0)
T2DEC 003:034.616 - 0.012ms returns 0x00000000
T2DEC 003:034.626 JLINK_ReadReg(FPS1)
T2DEC 003:034.633 - 0.010ms returns 0x00000000
T2DEC 003:034.643 JLINK_ReadReg(FPS2)
T2DEC 003:034.650 - 0.010ms returns 0x00000000
T2DEC 003:034.659 JLINK_ReadReg(FPS3)
T2DEC 003:034.666 - 0.010ms returns 0x00000000
T2DEC 003:034.676 JLINK_ReadReg(FPS4)
T2DEC 003:034.683 - 0.009ms returns 0x00000000
T2DEC 003:034.693 JLINK_ReadReg(FPS5)
T2DEC 003:034.699 - 0.010ms returns 0x00000000
T2DEC 003:034.709 JLINK_ReadReg(FPS6)
T2DEC 003:034.716 - 0.010ms returns 0x00000000
T2DEC 003:034.725 JLINK_ReadReg(FPS7)
T2DEC 003:034.732 - 0.010ms returns 0x00000000
T2DEC 003:034.742 JLINK_ReadReg(FPS8)
T2DEC 003:034.749 - 0.010ms returns 0x00000000
T2DEC 003:034.758 JLINK_ReadReg(FPS9)
T2DEC 003:034.765 - 0.010ms returns 0x00000000
T2DEC 003:034.775 JLINK_ReadReg(FPS10)
T2DEC 003:034.782 - 0.010ms returns 0x00000000
T2DEC 003:034.791 JLINK_ReadReg(FPS11)
T2DEC 003:034.798 - 0.009ms returns 0x00000000
T2DEC 003:034.807 JLINK_ReadReg(FPS12)
T2DEC 003:034.819 - 0.015ms returns 0x00000000
T2DEC 003:034.829 JLINK_ReadReg(FPS13)
T2DEC 003:034.836 - 0.009ms returns 0x00000000
T2DEC 003:034.845 JLINK_ReadReg(FPS14)
T2DEC 003:034.852 - 0.009ms returns 0x00000000
T2DEC 003:034.864 JLINK_ReadReg(FPS15)
T2DEC 003:034.873 - 0.011ms returns 0x00000000
T2DEC 003:034.882 JLINK_ReadReg(FPS16)
T2DEC 003:034.889 - 0.009ms returns 0x00000000
T2DEC 003:034.898 JLINK_ReadReg(FPS17)
T2DEC 003:034.905 - 0.009ms returns 0x00000000
T2DEC 003:034.914 JLINK_ReadReg(FPS18)
T2DEC 003:034.921 - 0.009ms returns 0x00000000
T2DEC 003:034.930 JLINK_ReadReg(FPS19)
T2DEC 003:034.937 - 0.009ms returns 0x00000000
T2DEC 003:034.946 JLINK_ReadReg(FPS20)
T2DEC 003:034.953 - 0.009ms returns 0x00000000
T2DEC 003:034.962 JLINK_ReadReg(FPS21)
T2DEC 003:034.969 - 0.009ms returns 0x00000000
T2DEC 003:034.979 JLINK_ReadReg(FPS22)
T2DEC 003:034.985 - 0.009ms returns 0x00000000
T2DEC 003:034.994 JLINK_ReadReg(FPS23)
T2DEC 003:035.001 - 0.009ms returns 0x00000000
T2DEC 003:035.010 JLINK_ReadReg(FPS24)
T2DEC 003:035.017 - 0.009ms returns 0x00000000
T2DEC 003:035.026 JLINK_ReadReg(FPS25)
T2DEC 003:035.032 - 0.009ms returns 0x00000000
T2DEC 003:035.042 JLINK_ReadReg(FPS26)
T2DEC 003:035.048 - 0.009ms returns 0x00000000
T2DEC 003:035.058 JLINK_ReadReg(FPS27)
T2DEC 003:035.065 - 0.009ms returns 0x00000000
T2DEC 003:035.074 JLINK_ReadReg(FPS28)
T2DEC 003:035.081 - 0.009ms returns 0x00000000
T2DEC 003:035.090 JLINK_ReadReg(FPS29)
T2DEC 003:035.097 - 0.009ms returns 0x00000000
T2DEC 003:035.106 JLINK_ReadReg(FPS30)
T2DEC 003:035.112 - 0.009ms returns 0x00000000
T2DEC 003:035.122 JLINK_ReadReg(FPS31)
T2DEC 003:035.128 - 0.009ms returns 0x00000000
T2DEC 003:063.737 JLINK_ReadMemEx(0x20000E40, 0x4 Bytes, Flags = 0x02000000)
T2DEC 003:063.767   CPU_ReadMem(64 bytes @ 0x20000E40)
T2DEC 003:064.450    -- Updating C cache (64 bytes @ 0x20000E40)
T2DEC 003:064.468    -- Read from C cache (4 bytes @ 0x20000E40)
T2DEC 003:064.478   Data:  00 00 00 00
T2DEC 003:064.488 - 0.754ms returns 4 (0x4)
T2DEC 003:064.713 JLINK_ReadMemEx(0x20000E40, 0x4 Bytes, Flags = 0x02000000)
T2DEC 003:064.730    -- Read from C cache (4 bytes @ 0x20000E40)
T2DEC 003:064.740   Data:  00 00 00 00
T2DEC 003:064.749 - 0.038ms returns 4 (0x4)
T2DEC 003:064.774 JLINK_ReadMemEx(0x20000E40, 0x4 Bytes, Flags = 0x02000000)
T2DEC 003:064.783    -- Read from C cache (4 bytes @ 0x20000E40)
T2DEC 003:064.792   Data:  00 00 00 00
T2DEC 003:064.801 - 0.030ms returns 4 (0x4)
T2DEC 003:066.651 JLINK_ReadMemEx(0x20000014, 0x4 Bytes, Flags = 0x02000000)
T2DEC 003:066.670   CPU_ReadMem(64 bytes @ 0x20000000)
T2DEC 003:067.345    -- Updating C cache (64 bytes @ 0x20000000)
T2DEC 003:067.359    -- Read from C cache (4 bytes @ 0x20000014)
T2DEC 003:067.369   Data:  80 57 BC 47
T2DEC 003:067.378 - 0.730ms returns 4 (0x4)
T2DEC 003:067.418 JLINK_ReadMemEx(0x20000014, 0x4 Bytes, Flags = 0x02000000)
T2DEC 003:067.431    -- Read from C cache (4 bytes @ 0x20000014)
T2DEC 003:067.441   Data:  80 57 BC 47
T2DEC 003:067.450 - 0.034ms returns 4 (0x4)
T2DEC 003:067.474 JLINK_ReadMemEx(0x20000014, 0x4 Bytes, Flags = 0x02000000)
T2DEC 003:067.484    -- Read from C cache (4 bytes @ 0x20000014)
T2DEC 003:067.493   Data:  80 57 BC 47
T2DEC 003:067.502 - 0.031ms returns 4 (0x4)
T2DEC 003:072.400 JLINK_ReadMemEx(0x20000E44, 0x4 Bytes, Flags = 0x02000000)
T2DEC 003:072.420    -- Read from C cache (4 bytes @ 0x20000E44)
T2DEC 003:072.430   Data:  00 00 00 00
T2DEC 003:072.439 - 0.042ms returns 4 (0x4)
T2DEC 003:072.661 JLINK_ReadMemEx(0x20000E44, 0x4 Bytes, Flags = 0x02000000)
T2DEC 003:072.677    -- Read from C cache (4 bytes @ 0x20000E44)
T2DEC 003:072.687   Data:  00 00 00 00
T2DEC 003:072.697 - 0.038ms returns 4 (0x4)
T2DEC 003:072.720 JLINK_ReadMemEx(0x20000E44, 0x4 Bytes, Flags = 0x02000000)
T2DEC 003:072.730    -- Read from C cache (4 bytes @ 0x20000E44)
T2DEC 003:072.740   Data:  00 00 00 00
T2DEC 003:072.749 - 0.031ms returns 4 (0x4)
T0E50 003:137.253 JLINK_ReadMemEx(0x080001A8, 0x2 Bytes, Flags = 0x02000000)
T0E50 003:137.285    -- Read from C cache (2 bytes @ 0x080001A8)
T0E50 003:137.295   Data:  06 48
T0E50 003:137.304 - 0.054ms returns 2 (0x2)
T0E50 003:137.314 JLINK_HasError()
T0E50 003:137.324 JLINK_SetBPEx(Addr = 0x08011098, Type = 0xFFFFFFF2)
T0E50 003:137.345 - 0.024ms returns 0x00000001
T0E50 003:137.354 JLINK_HasError()
T0E50 003:137.362 JLINK_SetBPEx(Addr = 0x0800210C, Type = 0xFFFFFFF2)
T0E50 003:137.369 - 0.010ms returns 0x00000002
T0E50 003:137.378 JLINK_HasError()
T0E50 003:137.386 JLINK_HasError()
T0E50 003:137.394 JLINK_ReadMemU32(0xE0001004, 0x1 Items)
T0E50 003:137.405   Data:  00 00 00 00
T0E50 003:137.415   Debug reg: DWT_CYCCNT
T0E50 003:137.424 - 0.033ms returns 1 (0x1)
T0E50 003:137.432 JLINK_WriteU32_64(0xE0001004, 0x000003FF)
T0E50 003:137.439   Debug reg: DWT_CYCCNT
T0E50 003:137.451 - 0.022ms returns 0 (0x00000000)
T0E50 003:137.460 JLINK_WriteU32_64(0xE0001000, 0x00410A1F)
T0E50 003:137.466   Debug reg: DWT_CTRL
T0E50 003:137.477 - 0.020ms returns 0 (0x00000000)
T0E50 003:137.485 JLINK_WriteU32_64(0xE0000E80, 0x0001000F)
T0E50 003:137.492   Debug reg: ITM_TCR
T0E50 003:137.502 - 0.020ms returns 0 (0x00000000)
T0E50 003:137.515 JLINK_SWO_Control(JLINKARM_SWO_CMD_GET_NUM_BYTES, ...)
T0E50 003:137.522 - 0.010ms returns 0x1B
T0E50 003:137.530 JLINK_SWO_Control(JLINKARM_SWO_CMD_FLUSH, ...)
T0E50 003:137.536 - 0.009ms returns 0x00
T0E50 003:137.544 JLINK_Go()
T0E50 003:137.554   CPU_WriteMem(4 bytes @ 0xE0002000)
T0E50 003:137.991   CPU_WriteMem(4 bytes @ 0xE0002000)
T0E50 003:138.330   CPU_WriteMem(4 bytes @ 0xE0001000)
T0E50 003:138.661   CPU_ReadMem(4 bytes @ 0xE0001000)
T0E50 003:138.995   CPU_WriteMem(4 bytes @ 0xE0000E80)
T0E50 003:139.010   CPU_WriteMem(4 bytes @ 0xE0001008)
T0E50 003:139.020   CPU_WriteMem(4 bytes @ 0xE000100C)
T0E50 003:139.030   CPU_WriteMem(4 bytes @ 0xE0001010)
T0E50 003:139.041   CPU_WriteMem(4 bytes @ 0xE0001014)
T0E50 003:139.051   CPU_WriteMem(4 bytes @ 0xE0001018)
T0E50 003:139.061   CPU_WriteMem(4 bytes @ 0xE0002008)
T0E50 003:139.071   CPU_WriteMem(4 bytes @ 0xE000200C)
T0E50 003:139.081   CPU_WriteMem(4 bytes @ 0xE0002010)
T0E50 003:139.091   CPU_WriteMem(4 bytes @ 0xE0002014)
T0E50 003:139.101   CPU_WriteMem(4 bytes @ 0xE0002018)
T0E50 003:139.111   CPU_WriteMem(4 bytes @ 0xE000201C)
T0E50 003:141.796   CPU_WriteMem(4 bytes @ 0xE0001004)
T0E50 003:142.573 - 5.036ms
T0E50 003:142.592 JLINK_WriteU32_64(0xE0001000, 0x00010A1F)
T0E50 003:142.600   Debug reg: DWT_CTRL
T0E50 003:142.614   CPU is running
T0E50 003:142.626   CPU_WriteMem(4 bytes @ 0xE0001000)
T0E50 003:142.985 - 0.399ms returns 0 (0x00000000)
T0E50 003:243.969 JLINK_SWO_Read(..., Offset = 0x00, NumBytes = 0x400000)
T0E50 003:243.992   Data:  F0 F0 00 00 00 00 F0 00 00 00 00 00 00
T0E50 003:244.002 - 0.035ms returns NumBytesRead = 0x0D
T0E50 003:244.011 JLINK_SWO_Control(JLINKARM_SWO_CMD_FLUSH, ...)
T0E50 003:244.018 - 0.010ms returns 0x00
T0E50 003:244.028 JLINK_HasError()
T0E50 003:244.038 JLINK_IsHalted()
T0E50 003:246.715 - 2.684ms returns TRUE
T0E50 003:246.733 JLINK_HasError()
T0E50 003:247.001 JLINK_Halt()
T0E50 003:247.011 - 0.014ms returns 0x00
T0E50 003:247.020 JLINK_IsHalted()
T0E50 003:247.027 - 0.010ms returns TRUE
T0E50 003:247.036 JLINK_IsHalted()
T0E50 003:247.042 - 0.009ms returns TRUE
T0E50 003:247.050 JLINK_IsHalted()
T0E50 003:247.057 - 0.009ms returns TRUE
T0E50 003:247.065 JLINK_HasError()
T0E50 003:247.074 JLINK_ReadReg(R15 (PC))
T0E50 003:247.083 - 0.012ms returns 0x08011098
T0E50 003:247.092 JLINK_ReadReg(XPSR)
T0E50 003:247.099 - 0.010ms returns 0x61000000
T0E50 003:247.108 JLINK_SWO_Read(..., Offset = 0x00, NumBytes = 0x400000)
T0E50 003:247.115   Data: 
T0E50 003:247.125 - 0.019ms returns NumBytesRead = 0x00
T0E50 003:247.133 JLINK_SWO_Control(JLINKARM_SWO_CMD_FLUSH, ...)
T0E50 003:247.140 - 0.009ms returns 0x00
T0E50 003:247.150 JLINK_HasError()
T0E50 003:247.158 JLINK_ClrBPEx(BPHandle = 0x00000001)
T0E50 003:247.165 - 0.011ms returns 0x00
T0E50 003:247.174 JLINK_HasError()
T0E50 003:247.182 JLINK_ClrBPEx(BPHandle = 0x00000002)
T0E50 003:247.189 - 0.010ms returns 0x00
T0E50 003:247.197 JLINK_HasError()
T0E50 003:247.205 JLINK_HasError()
T0E50 003:247.213 JLINK_ReadMemU32(0xE000ED30, 0x1 Items)
T0E50 003:247.228   CPU_ReadMem(4 bytes @ 0xE000ED30)
T0E50 003:247.564   Data:  02 00 00 00
T0E50 003:247.576 - 0.366ms returns 1 (0x1)
T0E50 003:247.587 JLINK_ReadMemU32(0xE0001028, 0x1 Items)
T0E50 003:247.597   CPU_ReadMem(4 bytes @ 0xE0001028)
T0E50 003:247.991   Data:  00 00 00 00
T0E50 003:248.009   Debug reg: DWT_FUNC[0]
T0E50 003:248.019 - 0.435ms returns 1 (0x1)
T0E50 003:248.029 JLINK_ReadMemU32(0xE0001038, 0x1 Items)
T0E50 003:248.039   CPU_ReadMem(4 bytes @ 0xE0001038)
T0E50 003:248.360   Data:  00 02 00 00
T0E50 003:248.373   Debug reg: DWT_FUNC[1]
T0E50 003:248.382 - 0.356ms returns 1 (0x1)
T0E50 003:248.392 JLINK_ReadMemU32(0xE0001048, 0x1 Items)
T0E50 003:248.402   CPU_ReadMem(4 bytes @ 0xE0001048)
T0E50 003:248.710   Data:  00 00 00 00
T0E50 003:248.723   Debug reg: DWT_FUNC[2]
T0E50 003:248.732 - 0.343ms returns 1 (0x1)
T0E50 003:248.742 JLINK_ReadMemU32(0xE0001058, 0x1 Items)
T0E50 003:248.752   CPU_ReadMem(4 bytes @ 0xE0001058)
T0E50 003:249.066   Data:  00 00 00 00
T0E50 003:249.078   Debug reg: DWT_FUNC[3]
T0E50 003:249.087 - 0.348ms returns 1 (0x1)
T0E50 003:249.307 JLINK_HasError()
T0E50 003:249.320 JLINK_ReadReg(R0)
T0E50 003:249.328 - 0.011ms returns 0x08011099
T0E50 003:249.337 JLINK_ReadReg(R1)
T0E50 003:249.344 - 0.010ms returns 0x20002D88
T0E50 003:249.352 JLINK_ReadReg(R2)
T0E50 003:249.359 - 0.009ms returns 0x00000000
T0E50 003:249.367 JLINK_ReadReg(R3)
T0E50 003:249.374 - 0.009ms returns 0x08011AA1
T0E50 003:249.382 JLINK_ReadReg(R4)
T0E50 003:249.388 - 0.009ms returns 0x08013308
T0E50 003:249.397 JLINK_ReadReg(R5)
T0E50 003:249.403 - 0.009ms returns 0x08013308
T0E50 003:249.411 JLINK_ReadReg(R6)
T0E50 003:249.418 - 0.009ms returns 0x00000000
T0E50 003:249.426 JLINK_ReadReg(R7)
T0E50 003:249.433 - 0.009ms returns 0x00000000
T0E50 003:249.441 JLINK_ReadReg(R8)
T0E50 003:249.448 - 0.010ms returns 0x00000000
T0E50 003:249.456 JLINK_ReadReg(R9)
T0E50 003:249.463 - 0.009ms returns 0x00000000
T0E50 003:249.471 JLINK_ReadReg(R10)
T0E50 003:249.477 - 0.009ms returns 0x00000000
T0E50 003:249.486 JLINK_ReadReg(R11)
T0E50 003:249.492 - 0.009ms returns 0x00000000
T0E50 003:249.500 JLINK_ReadReg(R12)
T0E50 003:249.507 - 0.009ms returns 0x00000000
T0E50 003:249.515 JLINK_ReadReg(R13 (SP))
T0E50 003:249.522 - 0.010ms returns 0x20002D88
T0E50 003:249.530 JLINK_ReadReg(R14)
T0E50 003:249.537 - 0.009ms returns 0x08000865
T0E50 003:249.545 JLINK_ReadReg(R15 (PC))
T0E50 003:249.552 - 0.009ms returns 0x08011098
T0E50 003:249.560 JLINK_ReadReg(XPSR)
T0E50 003:249.566 - 0.009ms returns 0x61000000
T0E50 003:249.574 JLINK_ReadReg(MSP)
T0E50 003:249.581 - 0.009ms returns 0x20002D88
T0E50 003:249.589 JLINK_ReadReg(PSP)
T0E50 003:249.596 - 0.009ms returns 0x00000000
T0E50 003:249.604 JLINK_ReadReg(CFBP)
T0E50 003:249.611 - 0.009ms returns 0x00000000
T0E50 003:249.619 JLINK_ReadReg(FPSCR)
T0E50 003:253.802 - 4.189ms returns 0x00000000
T0E50 003:253.818 JLINK_ReadReg(FPS0)
T0E50 003:253.826 - 0.011ms returns 0x00000000
T0E50 003:253.836 JLINK_ReadReg(FPS1)
T0E50 003:253.842 - 0.010ms returns 0x00000000
T0E50 003:253.852 JLINK_ReadReg(FPS2)
T0E50 003:253.859 - 0.009ms returns 0x00000000
T0E50 003:253.868 JLINK_ReadReg(FPS3)
T0E50 003:253.875 - 0.009ms returns 0x00000000
T0E50 003:253.885 JLINK_ReadReg(FPS4)
T0E50 003:253.891 - 0.009ms returns 0x00000000
T0E50 003:253.901 JLINK_ReadReg(FPS5)
T0E50 003:253.907 - 0.009ms returns 0x00000000
T0E50 003:253.917 JLINK_ReadReg(FPS6)
T0E50 003:253.923 - 0.009ms returns 0x00000000
T0E50 003:253.935 JLINK_ReadReg(FPS7)
T0E50 003:253.941 - 0.010ms returns 0x00000000
T0E50 003:253.951 JLINK_ReadReg(FPS8)
T0E50 003:253.958 - 0.009ms returns 0x00000000
T0E50 003:253.967 JLINK_ReadReg(FPS9)
T0E50 003:253.974 - 0.009ms returns 0x00000000
T0E50 003:253.984 JLINK_ReadReg(FPS10)
T0E50 003:253.990 - 0.009ms returns 0x00000000
T0E50 003:254.000 JLINK_ReadReg(FPS11)
T0E50 003:254.006 - 0.009ms returns 0x00000000
T0E50 003:254.016 JLINK_ReadReg(FPS12)
T0E50 003:254.022 - 0.009ms returns 0x00000000
T0E50 003:254.079 JLINK_ReadReg(FPS13)
T0E50 003:254.089 - 0.013ms returns 0x00000000
T0E50 003:254.099 JLINK_ReadReg(FPS14)
T0E50 003:254.106 - 0.009ms returns 0x00000000
T0E50 003:254.115 JLINK_ReadReg(FPS15)
T0E50 003:254.122 - 0.009ms returns 0x00000000
T0E50 003:254.131 JLINK_ReadReg(FPS16)
T0E50 003:254.138 - 0.009ms returns 0x00000000
T0E50 003:254.148 JLINK_ReadReg(FPS17)
T0E50 003:254.154 - 0.009ms returns 0x00000000
T0E50 003:254.163 JLINK_ReadReg(FPS18)
T0E50 003:254.170 - 0.009ms returns 0x00000000
T0E50 003:254.180 JLINK_ReadReg(FPS19)
T0E50 003:254.186 - 0.009ms returns 0x00000000
T0E50 003:254.196 JLINK_ReadReg(FPS20)
T0E50 003:254.202 - 0.009ms returns 0x00000000
T0E50 003:254.212 JLINK_ReadReg(FPS21)
T0E50 003:254.219 - 0.009ms returns 0x00000000
T0E50 003:254.228 JLINK_ReadReg(FPS22)
T0E50 003:254.235 - 0.009ms returns 0x00000000
T0E50 003:254.244 JLINK_ReadReg(FPS23)
T0E50 003:254.251 - 0.009ms returns 0x00000000
T0E50 003:254.260 JLINK_ReadReg(FPS24)
T0E50 003:254.267 - 0.009ms returns 0x00000000
T0E50 003:254.276 JLINK_ReadReg(FPS25)
T0E50 003:254.283 - 0.009ms returns 0x00000000
T0E50 003:254.292 JLINK_ReadReg(FPS26)
T0E50 003:254.299 - 0.009ms returns 0x00000000
T0E50 003:254.308 JLINK_ReadReg(FPS27)
T0E50 003:254.315 - 0.009ms returns 0x00000000
T0E50 003:254.325 JLINK_ReadReg(FPS28)
T0E50 003:254.331 - 0.009ms returns 0x00000000
T0E50 003:254.341 JLINK_ReadReg(FPS29)
T0E50 003:254.347 - 0.009ms returns 0x00000000
T0E50 003:254.357 JLINK_ReadReg(FPS30)
T0E50 003:254.363 - 0.009ms returns 0x00000000
T0E50 003:254.373 JLINK_ReadReg(FPS31)
T0E50 003:254.379 - 0.009ms returns 0x00000000
T2DEC 003:258.883 JLINK_ReadMemEx(0x20000E40, 0x4 Bytes, Flags = 0x02000000)
T2DEC 003:258.906   CPU_ReadMem(64 bytes @ 0x20000E40)
T2DEC 003:259.600    -- Updating C cache (64 bytes @ 0x20000E40)
T2DEC 003:259.614    -- Read from C cache (4 bytes @ 0x20000E40)
T2DEC 003:259.624   Data:  00 00 00 00
T2DEC 003:259.633 - 0.753ms returns 4 (0x4)
T2DEC 003:259.657 JLINK_ReadMemEx(0x20000014, 0x4 Bytes, Flags = 0x02000000)
T2DEC 003:259.669   CPU_ReadMem(64 bytes @ 0x20000000)
T2DEC 003:260.363    -- Updating C cache (64 bytes @ 0x20000000)
T2DEC 003:260.376    -- Read from C cache (4 bytes @ 0x20000014)
T2DEC 003:260.386   Data:  00 00 80 3F
T2DEC 003:260.395 - 0.740ms returns 4 (0x4)
T2DEC 003:260.619 JLINK_ReadMemEx(0x20000E44, 0x4 Bytes, Flags = 0x02000000)
T2DEC 003:260.634    -- Read from C cache (4 bytes @ 0x20000E44)
T2DEC 003:260.643   Data:  00 00 00 00
T2DEC 003:260.652 - 0.036ms returns 4 (0x4)
T2DEC 003:268.152 JLINK_ReadMemEx(0x08011098, 0x3C Bytes, Flags = 0x02000000)
T2DEC 003:268.168   CPU_ReadMem(128 bytes @ 0x08011080)
T2DEC 003:269.222    -- Updating C cache (128 bytes @ 0x08011080)
T2DEC 003:269.237    -- Read from C cache (60 bytes @ 0x08011098)
T2DEC 003:269.247   Data:  80 B5 FE F7 AB F9 FB F7 59 FB FB F7 59 FE FB F7 ...
T2DEC 003:269.256 - 1.107ms returns 60 (0x3C)
T2DEC 003:269.267 JLINK_ReadMemEx(0x08011098, 0x2 Bytes, Flags = 0x02000000)
T2DEC 003:269.275    -- Read from C cache (2 bytes @ 0x08011098)
T2DEC 003:269.284   Data:  80 B5
T2DEC 003:269.293 - 0.029ms returns 2 (0x2)
T2DEC 003:269.374 JLINK_ReadMemEx(0x0801109A, 0x2 Bytes, Flags = 0x02000000)
T2DEC 003:269.382    -- Read from C cache (2 bytes @ 0x0801109A)
T2DEC 003:269.391   Data:  FE F7
T2DEC 003:269.400 - 0.029ms returns 2 (0x2)
T2DEC 003:269.418 JLINK_ReadMemEx(0x0801109A, 0x2 Bytes, Flags = 0x02000000)
T2DEC 003:269.425    -- Read from C cache (2 bytes @ 0x0801109A)
T2DEC 003:269.434   Data:  FE F7
T2DEC 003:269.443 - 0.028ms returns 2 (0x2)
T2DEC 003:269.451 JLINK_ReadMemEx(0x0801109C, 0x3C Bytes, Flags = 0x02000000)
T2DEC 003:269.458    -- Read from C cache (60 bytes @ 0x0801109C)
T2DEC 003:269.468   Data:  AB F9 FB F7 59 FB FB F7 59 FE FB F7 ED FD 00 20 ...
T2DEC 003:269.476 - 0.028ms returns 60 (0x3C)
T2DEC 003:269.484 JLINK_ReadMemEx(0x0801109C, 0x2 Bytes, Flags = 0x02000000)
T2DEC 003:269.491    -- Read from C cache (2 bytes @ 0x0801109C)
T2DEC 003:269.504   Data:  AB F9
T2DEC 003:269.513 - 0.031ms returns 2 (0x2)
T2DEC 008:456.966 JLINK_HasError()
T2DEC 008:456.987 JLINK_SetResetType(JLINKARM_CM3_RESET_TYPE_NORMAL)
T2DEC 008:456.994 - 0.009ms returns JLINKARM_CM3_RESET_TYPE_NORMAL
T2DEC 008:457.002 JLINK_Reset()
T2DEC 008:457.019   CPU_WriteMem(4 bytes @ 0xE000EDF0)
T2DEC 008:457.342   CPU_WriteMem(4 bytes @ 0xE000EDFC)
T2DEC 008:457.682   Reset: Halt core after reset via DEMCR.VC_CORERESET.
T2DEC 008:458.109   Reset: Reset device via AIRCR.SYSRESETREQ.
T2DEC 008:458.126   CPU_WriteMem(4 bytes @ 0xE000ED0C)
T2DEC 008:511.042   CPU_ReadMem(4 bytes @ 0xE000EDF0)
T2DEC 008:511.374   CPU_ReadMem(4 bytes @ 0xE000EDF0)
T2DEC 008:511.679   CPU_WriteMem(4 bytes @ 0xE000EDF0)
T2DEC 008:512.013   CPU_WriteMem(4 bytes @ 0xE000EDFC)
T2DEC 008:517.612   CPU_ReadMem(4 bytes @ 0xE000EDF0)
T2DEC 008:520.618   CPU_WriteMem(4 bytes @ 0xE0002000)
T2DEC 008:520.989   CPU_ReadMem(4 bytes @ 0xE000EDFC)
T2DEC 008:521.318   CPU_ReadMem(4 bytes @ 0xE0001000)
T2DEC 008:521.645   CPU_ReadMem(4 bytes @ 0xE0042004)
T2DEC 008:522.021 - 65.025ms
T2DEC 008:522.039 JLINK_WriteU32_64(0xE000EDFC, 0x01000000)
T2DEC 008:522.046   Debug reg: DEMCR
T2DEC 008:522.061   CPU_WriteMem(4 bytes @ 0xE000EDFC)
T2DEC 008:522.392 - 0.359ms returns 0 (0x00000000)
T2DEC 008:522.708 JLINK_HasError()
T2DEC 008:522.725 JLINK_ReadReg(R15 (PC))
T2DEC 008:522.734 - 0.012ms returns 0x080001A8
T2DEC 008:522.743 JLINK_ReadReg(XPSR)
T2DEC 008:522.750 - 0.010ms returns 0x01000000
T2DEC 008:529.859 JLINK_ReadMemEx(0x080001A8, 0x3C Bytes, Flags = 0x02000000)
T2DEC 008:529.878   CPU_ReadMem(128 bytes @ 0x08000180)
T2DEC 008:530.989    -- Updating C cache (128 bytes @ 0x08000180)
T2DEC 008:531.001    -- Read from C cache (60 bytes @ 0x080001A8)
T2DEC 008:531.011   Data:  06 48 80 47 06 48 00 47 FE E7 FE E7 FE E7 FE E7 ...
T2DEC 008:531.019 - 1.162ms returns 60 (0x3C)
T2DEC 008:531.031 JLINK_ReadMemEx(0x080001A8, 0x2 Bytes, Flags = 0x02000000)
T2DEC 008:531.039    -- Read from C cache (2 bytes @ 0x080001A8)
T2DEC 008:531.048   Data:  06 48
T2DEC 008:531.056 - 0.027ms returns 2 (0x2)
T2DEC 008:531.066 JLINK_ReadMemEx(0x080001AA, 0x2 Bytes, Flags = 0x02000000)
T2DEC 008:531.073    -- Read from C cache (2 bytes @ 0x080001AA)
T2DEC 008:531.081   Data:  80 47
T2DEC 008:531.089 - 0.026ms returns 2 (0x2)
T2DEC 008:531.297 JLINK_ReadMemEx(0x080001AA, 0x2 Bytes, Flags = 0x02000000)
T2DEC 008:531.312    -- Read from C cache (2 bytes @ 0x080001AA)
T2DEC 008:531.322   Data:  80 47
T2DEC 008:531.331 - 0.037ms returns 2 (0x2)
T2DEC 008:531.340 JLINK_ReadMemEx(0x080001AC, 0x3C Bytes, Flags = 0x02000000)
T2DEC 008:531.348    -- Read from C cache (60 bytes @ 0x080001AC)
T2DEC 008:531.358   Data:  06 48 00 47 FE E7 FE E7 FE E7 FE E7 FE E7 FE E7 ...
T2DEC 008:531.367 - 0.030ms returns 60 (0x3C)
T2DEC 008:531.376 JLINK_ReadMemEx(0x080001AC, 0x2 Bytes, Flags = 0x02000000)
T2DEC 008:531.383    -- Read from C cache (2 bytes @ 0x080001AC)
T2DEC 008:531.392   Data:  06 48
T2DEC 008:531.401 - 0.028ms returns 2 (0x2)
T2DEC 008:669.234 JLINK_HasError()
T2DEC 008:669.259 JLINK_ReadReg(R0)
T2DEC 008:669.272 - 0.017ms returns 0x00000000
T2DEC 008:669.283 JLINK_ReadReg(R1)
T2DEC 008:669.290 - 0.010ms returns 0x00000000
T2DEC 008:669.299 JLINK_ReadReg(R2)
T2DEC 008:669.306 - 0.010ms returns 0x00000000
T2DEC 008:669.314 JLINK_ReadReg(R3)
T2DEC 008:669.321 - 0.010ms returns 0x00000000
T2DEC 008:669.329 JLINK_ReadReg(R4)
T2DEC 008:669.339 - 0.013ms returns 0x00000000
T2DEC 008:669.348 JLINK_ReadReg(R5)
T2DEC 008:669.355 - 0.010ms returns 0x00000000
T2DEC 008:669.363 JLINK_ReadReg(R6)
T2DEC 008:669.370 - 0.010ms returns 0x00000000
T2DEC 008:669.379 JLINK_ReadReg(R7)
T2DEC 008:669.386 - 0.010ms returns 0x00000000
T2DEC 008:669.394 JLINK_ReadReg(R8)
T2DEC 008:669.403 - 0.013ms returns 0x00000000
T2DEC 008:669.413 JLINK_ReadReg(R9)
T2DEC 008:669.420 - 0.010ms returns 0x00000000
T2DEC 008:669.428 JLINK_ReadReg(R10)
T2DEC 008:669.435 - 0.010ms returns 0x00000000
T2DEC 008:669.443 JLINK_ReadReg(R11)
T2DEC 008:669.457 - 0.016ms returns 0x00000000
T2DEC 008:669.467 JLINK_ReadReg(R12)
T2DEC 008:669.475 - 0.011ms returns 0x00000000
T2DEC 008:669.484 JLINK_ReadReg(R13 (SP))
T2DEC 008:669.491 - 0.010ms returns 0x20002D88
T2DEC 008:669.499 JLINK_ReadReg(R14)
T2DEC 008:669.506 - 0.010ms returns 0xFFFFFFFF
T2DEC 008:669.515 JLINK_ReadReg(R15 (PC))
T2DEC 008:669.522 - 0.010ms returns 0x080001A8
T2DEC 008:669.532 JLINK_ReadReg(XPSR)
T2DEC 008:669.540 - 0.011ms returns 0x01000000
T2DEC 008:669.549 JLINK_ReadReg(MSP)
T2DEC 008:669.556 - 0.010ms returns 0x20002D88
T2DEC 008:669.564 JLINK_ReadReg(PSP)
T2DEC 008:669.571 - 0.010ms returns 0x00000000
T2DEC 008:669.580 JLINK_ReadReg(CFBP)
T2DEC 008:669.586 - 0.010ms returns 0x00000000
T2DEC 008:669.597 JLINK_ReadReg(FPSCR)
T2DEC 008:673.861 - 4.279ms returns 0x00000000
T2DEC 008:673.888 JLINK_ReadReg(FPS0)
T2DEC 008:673.898 - 0.013ms returns 0x00000000
T2DEC 008:673.908 JLINK_ReadReg(FPS1)
T2DEC 008:673.915 - 0.010ms returns 0x00000000
T2DEC 008:673.929 JLINK_ReadReg(FPS2)
T2DEC 008:673.937 - 0.010ms returns 0x00000000
T2DEC 008:673.947 JLINK_ReadReg(FPS3)
T2DEC 008:673.954 - 0.010ms returns 0x00000000
T2DEC 008:673.964 JLINK_ReadReg(FPS4)
T2DEC 008:673.971 - 0.010ms returns 0x00000000
T2DEC 008:673.981 JLINK_ReadReg(FPS5)
T2DEC 008:673.990 - 0.013ms returns 0x00000000
T2DEC 008:674.000 JLINK_ReadReg(FPS6)
T2DEC 008:674.008 - 0.010ms returns 0x00000000
T2DEC 008:674.018 JLINK_ReadReg(FPS7)
T2DEC 008:674.025 - 0.010ms returns 0x00000000
T2DEC 008:674.034 JLINK_ReadReg(FPS8)
T2DEC 008:674.041 - 0.010ms returns 0x00000000
T2DEC 008:674.051 JLINK_ReadReg(FPS9)
T2DEC 008:674.061 - 0.013ms returns 0x00000000
T2DEC 008:674.072 JLINK_ReadReg(FPS10)
T2DEC 008:674.079 - 0.010ms returns 0x00000000
T2DEC 008:674.089 JLINK_ReadReg(FPS11)
T2DEC 008:674.095 - 0.010ms returns 0x00000000
T2DEC 008:674.106 JLINK_ReadReg(FPS12)
T2DEC 008:674.113 - 0.010ms returns 0x00000000
T2DEC 008:674.125 JLINK_ReadReg(FPS13)
T2DEC 008:674.132 - 0.010ms returns 0x00000000
T2DEC 008:674.143 JLINK_ReadReg(FPS14)
T2DEC 008:674.149 - 0.010ms returns 0x00000000
T2DEC 008:674.160 JLINK_ReadReg(FPS15)
T2DEC 008:674.166 - 0.010ms returns 0x00000000
T2DEC 008:674.176 JLINK_ReadReg(FPS16)
T2DEC 008:674.183 - 0.013ms returns 0x00000000
T2DEC 008:674.197 JLINK_ReadReg(FPS17)
T2DEC 008:674.204 - 0.010ms returns 0x00000000
T2DEC 008:674.214 JLINK_ReadReg(FPS18)
T2DEC 008:674.221 - 0.010ms returns 0x00000000
T2DEC 008:674.231 JLINK_ReadReg(FPS19)
T2DEC 008:674.238 - 0.010ms returns 0x00000000
T2DEC 008:674.248 JLINK_ReadReg(FPS20)
T2DEC 008:674.258 - 0.013ms returns 0x00000000
T2DEC 008:674.269 JLINK_ReadReg(FPS21)
T2DEC 008:674.275 - 0.010ms returns 0x00000000
T2DEC 008:674.285 JLINK_ReadReg(FPS22)
T2DEC 008:674.292 - 0.010ms returns 0x00000000
T2DEC 008:674.302 JLINK_ReadReg(FPS23)
T2DEC 008:674.309 - 0.010ms returns 0x00000000
T2DEC 008:674.321 JLINK_ReadReg(FPS24)
T2DEC 008:674.328 - 0.011ms returns 0x00000000
T2DEC 008:674.339 JLINK_ReadReg(FPS25)
T2DEC 008:674.345 - 0.010ms returns 0x00000000
T2DEC 008:674.355 JLINK_ReadReg(FPS26)
T2DEC 008:674.362 - 0.010ms returns 0x00000000
T2DEC 008:674.372 JLINK_ReadReg(FPS27)
T2DEC 008:674.379 - 0.011ms returns 0x00000000
T2DEC 008:674.392 JLINK_ReadReg(FPS28)
T2DEC 008:674.399 - 0.010ms returns 0x00000000
T2DEC 008:674.409 JLINK_ReadReg(FPS29)
T2DEC 008:674.416 - 0.010ms returns 0x00000000
T2DEC 008:674.426 JLINK_ReadReg(FPS30)
T2DEC 008:674.433 - 0.010ms returns 0x00000000
T2DEC 008:674.443 JLINK_ReadReg(FPS31)
T2DEC 008:674.453 - 0.013ms returns 0x00000000
T2DEC 008:674.684 JLINK_ReadMemEx(0x20000E40, 0x4 Bytes, Flags = 0x02000000)
T2DEC 008:674.708   CPU_ReadMem(64 bytes @ 0x20000E40)
T2DEC 008:675.402    -- Updating C cache (64 bytes @ 0x20000E40)
T2DEC 008:675.417    -- Read from C cache (4 bytes @ 0x20000E40)
T2DEC 008:675.428   Data:  00 00 00 00
T2DEC 008:675.438 - 0.756ms returns 4 (0x4)
T2DEC 008:675.466 JLINK_ReadMemEx(0x20000014, 0x4 Bytes, Flags = 0x02000000)
T2DEC 008:675.480   CPU_ReadMem(64 bytes @ 0x20000000)
T2DEC 008:676.173    -- Updating C cache (64 bytes @ 0x20000000)
T2DEC 008:676.192    -- Read from C cache (4 bytes @ 0x20000014)
T2DEC 008:676.202   Data:  00 00 80 3F
T2DEC 008:676.211 - 0.748ms returns 4 (0x4)
T2DEC 008:676.471 JLINK_ReadMemEx(0x20000E44, 0x4 Bytes, Flags = 0x02000000)
T2DEC 008:676.487    -- Read from C cache (4 bytes @ 0x20000E44)
T2DEC 008:676.497   Data:  00 00 00 00
T2DEC 008:676.507 - 0.039ms returns 4 (0x4)
T2DEC 008:730.550 JLINK_WriteU32_64(0xE0001008, 0x00000000)
T2DEC 008:730.573   Debug reg: DWT_CPICNT
T2DEC 008:730.594 - 0.047ms returns 0 (0x00000000)
T2DEC 008:730.604 JLINK_WriteU32_64(0xE000100C, 0x00000000)
T2DEC 008:730.611   Debug reg: DWT_EXCCNT
T2DEC 008:730.622 - 0.021ms returns 0 (0x00000000)
T2DEC 008:730.631 JLINK_WriteU32_64(0xE0001010, 0x00000000)
T2DEC 008:730.638   Debug reg: DWT_SLEEPCNT
T2DEC 008:730.649 - 0.021ms returns 0 (0x00000000)
T2DEC 008:730.657 JLINK_WriteU32_64(0xE0001014, 0x00000000)
T2DEC 008:730.664   Debug reg: DWT_LSUCNT
T2DEC 008:730.675 - 0.020ms returns 0 (0x00000000)
T2DEC 008:730.683 JLINK_WriteU32_64(0xE0001018, 0x00000000)
T2DEC 008:730.690   Debug reg: DWT_FOLDCNT
T2DEC 008:730.700 - 0.020ms returns 0 (0x00000000)
T0E50 009:249.581 JLINK_ReadMemEx(0x080001A8, 0x2 Bytes, Flags = 0x02000000)
T0E50 009:249.600    -- Read from C cache (2 bytes @ 0x080001A8)
T0E50 009:249.610   Data:  06 48
T0E50 009:249.619 - 0.041ms returns 2 (0x2)
T0E50 009:249.629 JLINK_HasError()
T0E50 009:249.638 JLINK_SetBPEx(Addr = 0x080020FA, Type = 0xFFFFFFF2)
T0E50 009:249.649 - 0.014ms returns 0x00000003
T0E50 009:249.657 JLINK_HasError()
T0E50 009:249.665 JLINK_HasError()
T0E50 009:249.673 JLINK_ReadMemU32(0xE0001004, 0x1 Items)
T0E50 009:249.685   Data:  00 00 00 00
T0E50 009:249.694   Debug reg: DWT_CYCCNT
T0E50 009:249.703 - 0.033ms returns 1 (0x1)
T0E50 009:249.711 JLINK_WriteU32_64(0xE0001004, 0x000003FF)
T0E50 009:249.718   Debug reg: DWT_CYCCNT
T0E50 009:249.731 - 0.023ms returns 0 (0x00000000)
T0E50 009:249.739 JLINK_WriteU32_64(0xE0001000, 0x00410A1F)
T0E50 009:249.746   Debug reg: DWT_CTRL
T0E50 009:249.756 - 0.020ms returns 0 (0x00000000)
T0E50 009:249.765 JLINK_WriteU32_64(0xE0000E80, 0x0001000F)
T0E50 009:249.771   Debug reg: ITM_TCR
T0E50 009:249.781 - 0.020ms returns 0 (0x00000000)
T0E50 009:249.790 JLINK_SWO_Control(JLINKARM_SWO_CMD_GET_NUM_BYTES, ...)
T0E50 009:249.797 - 0.009ms returns 0x13
T0E50 009:249.805 JLINK_SWO_Control(JLINKARM_SWO_CMD_FLUSH, ...)
T0E50 009:249.811 - 0.009ms returns 0x00
T0E50 009:249.819 JLINK_Go()
T0E50 009:250.229   CPU_WriteMem(4 bytes @ 0xE0002000)
T0E50 009:250.647   CPU_WriteMem(4 bytes @ 0xE0001000)
T0E50 009:251.050   CPU_ReadMem(4 bytes @ 0xE0001000)
T0E50 009:251.424   CPU_WriteMem(4 bytes @ 0xE0000E80)
T0E50 009:251.439   CPU_WriteMem(4 bytes @ 0xE0001008)
T0E50 009:251.448   CPU_WriteMem(4 bytes @ 0xE000100C)
T0E50 009:251.458   CPU_WriteMem(4 bytes @ 0xE0001010)
T0E50 009:251.467   CPU_WriteMem(4 bytes @ 0xE0001014)
T0E50 009:251.477   CPU_WriteMem(4 bytes @ 0xE0001018)
T0E50 009:251.486   CPU_WriteMem(4 bytes @ 0xE0002008)
T0E50 009:251.495   CPU_WriteMem(4 bytes @ 0xE000200C)
T0E50 009:251.504   CPU_WriteMem(4 bytes @ 0xE0002010)
T0E50 009:251.514   CPU_WriteMem(4 bytes @ 0xE0002014)
T0E50 009:251.523   CPU_WriteMem(4 bytes @ 0xE0002018)
T0E50 009:251.532   CPU_WriteMem(4 bytes @ 0xE000201C)
T0E50 009:254.289   CPU_WriteMem(4 bytes @ 0xE0001004)
T0E50 009:255.145 - 5.333ms
T0E50 009:255.162 JLINK_WriteU32_64(0xE0001000, 0x00010A1F)
T0E50 009:255.170   Debug reg: DWT_CTRL
T0E50 009:255.183   CPU is running
T0E50 009:255.194   CPU_WriteMem(4 bytes @ 0xE0001000)
T0E50 009:255.527 - 0.370ms returns 0 (0x00000000)
T0E50 009:355.557 JLINK_SWO_Read(..., Offset = 0x00, NumBytes = 0x400000)
T0E50 009:355.580   Data:  F0 F0 00 00 00 00 F0 F0 0E 29 10 C0 CC FA 02 0E ...
T0E50 009:355.590 - 0.036ms returns NumBytesRead = 0xFB6
T0E50 009:355.599 JLINK_SWO_Control(JLINKARM_SWO_CMD_FLUSH, ...)
T0E50 009:355.606 - 0.014ms returns 0x00
T0E50 009:355.692 JLINK_HasError()
T0E50 009:355.702 JLINK_IsHalted()
T0E50 009:356.017 - 0.321ms returns FALSE
T0E50 009:457.203 JLINK_SWO_Read(..., Offset = 0x00, NumBytes = 0x400000)
T0E50 009:457.221   Data:  0E 0F 10 C0 AA 8E 05 0E 0F 20 C0 EC 01 0E 00 30 ...
T0E50 009:457.231 - 0.032ms returns NumBytesRead = 0x12A1
T0E50 009:457.241 JLINK_SWO_Control(JLINKARM_SWO_CMD_FLUSH, ...)
T0E50 009:457.249 - 0.010ms returns 0x00
T0E50 009:457.353 JLINK_HasError()
T0E50 009:457.364 JLINK_IsHalted()
T0E50 009:457.694 - 0.338ms returns FALSE
T0E50 009:558.889 JLINK_SWO_Read(..., Offset = 0x00, NumBytes = 0x400000)
T0E50 009:558.915   Data:  0E 0F 10 C0 FE 8D 05 0E 0F 20 C0 D4 01 0E 00 30 ...
T0E50 009:558.926 - 0.040ms returns NumBytesRead = 0x1B69
T0E50 009:558.937 JLINK_SWO_Control(JLINKARM_SWO_CMD_FLUSH, ...)
T0E50 009:558.944 - 0.011ms returns 0x00
T0E50 009:559.105 JLINK_HasError()
T0E50 009:559.117 JLINK_IsHalted()
T0E50 009:559.439 - 0.331ms returns FALSE
T0E50 009:660.608 JLINK_SWO_Read(..., Offset = 0x00, NumBytes = 0x400000)
T0E50 009:660.632   Data:  0E 0F 10 C0 AA 8E 05 0E 0F 20 C0 EC 01 0E 00 30 ...
T0E50 009:660.642 - 0.037ms returns NumBytesRead = 0x9D5
T0E50 009:660.652 JLINK_SWO_Control(JLINKARM_SWO_CMD_FLUSH, ...)
T0E50 009:660.660 - 0.011ms returns 0x00
T0E50 009:660.721 JLINK_HasError()
T0E50 009:660.732 JLINK_IsHalted()
T0E50 009:661.045 - 0.323ms returns FALSE
T0E50 009:762.025 JLINK_SWO_Read(..., Offset = 0x00, NumBytes = 0x400000)
T0E50 009:762.056   Data:  0E 0F 10 C0 C2 8E 05 0E 0F 20 C0 D4 01 0E 00 30 ...
T0E50 009:762.067 - 0.045ms returns NumBytesRead = 0x88F
T0E50 009:762.079 JLINK_SWO_Control(JLINKARM_SWO_CMD_FLUSH, ...)
T0E50 009:762.087 - 0.011ms returns 0x00
T0E50 009:762.162 JLINK_HasError()
T0E50 009:762.177 JLINK_HasError()
